LTspice 24.0.12 for Windows
Circuit: * E:\Eigene Dateien\Hardware Tüfteleien\Smart Subwoofer\LT Spice\Standby Relai.asc
Start Time: Thu Sep  5 17:42:52 2024
Warning: Multiple definitions of model "2scr375p" Type: BJT
Warning: Multiple definitions of model "bc857b" Type: BJT
Warning: Multiple definitions of model "bc847c" Type: BJT
Warning: Multiple definitions of model "bc847b" Type: BJT
Error on line 2 : s§relais_amp n002 n006 n003 n001 jqx-115f sw
	 Unable to find definition of model "jqx-115f"
solver = Normal
Maximum thread count: 12
tnom = 27
temp = 27
method = modified trap
WARNING: Node N006 is floating.

Direct Newton iteration for .op point succeeded.
Semiconductor Device Operating Points:
                        --- Diodes ---
Name:    d§amps        d2
Model:      d           d
Id:      1.65e-03   -6.38e-13
Vd:      6.68e-01   -6.28e-01
Req:     1.57e+01    1.00e+12
CAP:     0.00e+00    0.00e+00

                        --- Bipolar Transistors ---
Name:       q1          q2
Model:    2n5401      2n5401
Ib:      -6.46e-05    1.98e-12
Ic:      -7.78e-03    2.16e-14
Vbe:     -6.89e-01    1.96e+00
Vbc:      3.68e+00   -1.98e-08
Vce:     -4.37e+00    1.96e+00
BetaDC:   1.20e+02    1.09e-02
Gm:       2.89e-01   -8.30e-13
Rpi:      4.10e+02    1.00e+12
Rx:       1.00e+01    1.00e+01
Ro:       1.33e+04    1.20e+12
Cbe:      3.11e-10    4.52e-11
Cbc:      6.87e-12    1.76e-11
Cjs:      0.00e+00    0.00e+00
BetaAC:   1.19e+02   -8.30e-01
Cbx:      0.00e+00    0.00e+00
Ft:       1.45e+08    1.41e-03


Total elapsed time: 2.994 seconds.

